Circuit: * C:\Users\u15q86\Documents\git\ps2-blueretro\sim\port_status_led\port_status_led.asc

Error on line 1218 : .model bss138 nmos (level=1  vto=1.3  kp=120u  l=200n  w=100u  lambda=0.06  rds(on)=3.5  cgd=6p  cgs=27p  is=1p  pb=0.8  mj=0.5  cjo=5p
	* Unrecognized parameter "on" -- ignored
Error on line 1218 : .model bss138 nmos (level=1  vto=1.3  kp=120u  l=200n  w=100u  lambda=0.06  rds(on)=3.5  cgd=6p  cgs=27p  is=1p  pb=0.8  mj=0.5  cjo=5p
	* Unrecognized parameter "cgd" -- ignored
Error on line 1218 : .model bss138 nmos (level=1  vto=1.3  kp=120u  l=200n  w=100u  lambda=0.06  rds(on)=3.5  cgd=6p  cgs=27p  is=1p  pb=0.8  mj=0.5  cjo=5p
	* Unrecognized parameter "cgs" -- ignored
Error on line 1218 : .model bss138 nmos (level=1  vto=1.3  kp=120u  l=200n  w=100u  lambda=0.06  rds(on)=3.5  cgd=6p  cgs=27p  is=1p  pb=0.8  mj=0.5  cjo=5p
	* Unrecognized parameter "cjo" -- ignored
Instance "m1": Length shorter than recommended for a level 1 MOSFET.
Direct Newton iteration for .op point succeeded.
Semiconductor Device Operating Points:
                        --- MOSFET Transistors ---
Name:          m1
Model:       bss138
Id:          2.98e-02
Vgs:         3.00e+00
Vds:         3.17e-01
Vbs:         0.00e+00
Vth:         1.30e+00
Vdsat:       1.70e+00
Gm:          1.94e-02
Gds:         8.63e-02
Gmb:         0.00e+00
Cbd:         0.00e+00
Cbs:         0.00e+00
Cgsov:       0.00e+00
Cgdov:       0.00e+00
Cgbov:       0.00e+00
Cgs:         0.00e+00
Cgd:         0.00e+00
Cgb:         0.00e+00



Date: Thu Oct 10 14:01:56 2024
Total elapsed time: 0.040 seconds.

tnom = 27
temp = 27
method = trap
totiter = 8
traniter = 0
tranpoints = 0
accept = 0
rejected = 0
matrix size = 5
fillins = 0
solver = Normal
Avg thread counts: 16.0/0.0/16.0/16.0
Matrix Compiler1: 132 bytes object code size
Matrix Compiler2: 301 bytes object code size
